! BF996S Si-Dual Gate MOS-FET in SOT143 package
! V ds = 15V  I d = 10mA  V g2= 4V
# GHZ S MA R 50

!
 .05     .998396  -4.00 1.703241 174.43  .000624  92.35  .993648  -1.70
 .06     .998489  -4.78 1.704763 173.28  .000822  89.35  .993578  -2.07
 .07     .998228  -5.62 1.704839 172.10  .000820  86.04  .993470  -2.40
 .08     .997851  -6.40 1.703577 170.95  .001055  82.52  .993284  -2.72
 .09     .997266  -7.21 1.703978 169.79  .001169  88.14  .993309  -3.12
 .1     .996477  -8.01 1.703162 168.61  .001225  80.52  .993416  -3.42
 .11    .996214  -8.82 1.703230 167.46  .001497  83.41  .993505  -3.78
 .12    .995386  -9.63 1.703532 166.27  .001421  83.50  .992916  -4.11
 .13    .994726 -10.42 1.701708 165.12  .001733  82.67  .993053  -4.48
 .14    .993536 -11.20 1.700955 163.94  .001735  82.33  .993126  -4.80
 .15    .992525 -12.03 1.699700 162.75  .001901  80.63  .992641  -5.14
 .16    .991410 -12.81 1.697196 161.57  .001973  78.65  .992425  -5.52
 .18    .989590 -14.39 1.695175 159.27  .002221  77.55  .992853  -6.18
 .2     .986678 -16.00 1.690902 156.92  .002437  78.50  .992459  -6.88
 .22    .984074 -17.54 1.685033 154.54  .002732  75.35  .991256  -7.52
 .24    .981678 -19.13 1.680462 152.26  .002908  76.81  .991143  -8.19
 .25    .980718 -19.90 1.678194 151.08  .003072  75.36  .991428  -8.54
 .3     .971921 -23.79 1.660729 145.31  .003450  72.23  .990493 -10.28
 .35    .963003 -27.59 1.639612 139.59  .003946  69.43  .988667 -11.93
 .4     .952708 -31.37 1.616697 134.01  .004357  65.39  .987291 -13.63
 .45    .942144 -35.05 1.591662 128.55  .004703  61.34  .986692 -15.27
 .5     .930920 -38.59 1.565163 123.07  .005135  61.06  .985838 -16.88
 .55    .919484 -42.23 1.540935 117.81  .005382  57.46  .984114 -18.57
 .6     .907696 -45.76 1.514175 112.55  .005496  55.40  .983498 -20.20
 .65    .897055 -49.24 1.488707 107.30  .005499  53.30  .983465 -21.85
 .7     .885561 -52.62 1.461094 102.15  .005591  55.32  .982607 -23.55
 .75    .873711 -56.11 1.428885  97.03  .006087  55.03  .979961 -25.20
 .8     .860365 -59.47 1.398957  92.18  .006292  50.33  .978269 -26.80
 .85    .846963 -62.64 1.371412  87.34  .006116  44.90  .977738 -28.36
 .9     .835138 -65.76 1.342997  82.59  .005924  41.59  .976650 -30.01
 .95    .824835 -68.83 1.316807  78.04  .005452  40.00  .976775 -31.60
 1      .811878 -71.92 1.292201  73.36  .005205  39.83  .976540 -33.27
 1.1    .789521 -78.23 1.246127  64.07  .004545  42.00  .975405 -36.68
 1.2    .765202 -84.36 1.198728  54.76  .003850  46.65  .972787 -40.27
 1.3    .742407 -90.40 1.146220  45.78  .003701  47.12  .971355 -43.87
 1.4    .719042 -95.93 1.094288  37.26  .002292  44.03  .968551 -47.32
 1.5    .701086 -101.1 1.051471  29.06  .001333  85.55  .969094 -50.77
 1.6    .683458 -105.9 1.014564  21.11  .001563 135.00  .969753 -54.22
 1.7    .668779 -110.8  .983877  13.11  .002823 157.11  .973225 -57.66
 1.8    .656235 -115.8  .960852   4.94  .004306 167.45  .975748 -61.21
 1.9    .643010 -120.9  .937671  -3.38  .005760 174.63  .976069 -64.91
 2      .631728 -126.2  .917930 -11.73  .007760 174.87  .978630 -68.92
 2.1    .621270 -131.3  .899304 -20.51  .009881 176.73  .977602 -73.13
 2.2    .609934 -136.4  .878571 -29.06  .011895 176.82  .977451 -77.66
 2.3    .601150 -141.4  .864109 -37.92  .014377 178.54  .975485 -82.32
 2.4    .589727 -146.0  .851271 -46.94  .017070 179.16  .973918 -87.39
 2.5    .581970 -150.2  .840967 -56.00  .019815 -178.9  .971803 -92.42
 2.6    .569655 -153.9  .835877 -65.43  .023298 -176.6  .969959 -97.76
 2.8    .553345 -159.5  .844992 -85.44  .033755 -171.1  .955334 -108.1
 3      .554749 -163.1  .872127 -108.7  .054900 -170.7  .918931 -119.1
!
!                 SIEMENS AG  Semiconductor Division
!     Balanstr. 73   D-8000 Munich 80   Federal Republic of Germany
!
!     kjs/db3tb

