! Filename:       BFR90AC.S2P                                Version:   2.0
! Philips part #: BFR90A                                     Date: Jul 1990
! Bias condition: Vce=5V,  Ic=10mA
!
#  MHz  S  MA  R  50
! Freq       S11            S21            S12            S22    
   40    .754  -15.0  24.542  163.3    .007   81.6    .971   -7.0
  100    .646  -33.3  20.969  142.8    .017   74.2    .881  -15.3
  200    .451  -52.5  15.098  120.9    .029   69.2    .745  -20.7
  300    .325  -63.8  11.337  107.9    .038   68.2    .669  -22.2
  400    .251  -70.9   8.979   99.3    .048   68.2    .631  -23.2
  500    .195  -76.6   7.417   92.4    .058   68.4    .607  -24.7
  600    .154  -80.3   6.306   87.1    .067   67.5    .596  -26.0
  700    .121  -80.6   5.431   82.0    .077   67.0    .587  -27.5
  800    .094  -80.6   4.808   78.3    .086   66.3    .582  -28.8
  900    .073  -79.9   4.306   74.1    .095   65.1    .574  -30.2
 1000    .046  -80.3   3.908   70.1    .105   64.0    .567  -31.5
 1200    .004   54.5   3.357   62.5    .124   60.9    .545  -35.4
 1400    .042   88.7   2.912   55.7    .143   57.4    .521  -40.4
 1600    .067   84.8   2.587   49.7    .161   55.3    .515  -46.0
 1800    .085   79.8   2.379   43.7    .181   52.5    .513  -51.1
 2000    .122   72.5   2.177   37.4    .197   48.9    .506  -55.1
 2200    .162   70.3   1.996   31.4    .214   45.9    .484  -58.7
 2400    .196   71.5   1.890   26.3    .230   43.0    .456  -64.6
 2600    .225   71.2   1.812   20.0    .249   39.3    .437  -72.3
 2800    .245   65.8   1.705   13.8    .266   36.0    .434  -79.4
 3000    .263   60.7   1.622    9.7    .282   33.6    .437  -84.2
