# MHz S MA R 50.0 
!freq magS11 angS11
0.1        0.996991   177.1206
0.249     0.9970028   172.8473
0.398     0.9967624   168.6343
0.547     0.9962149   164.4406
0.696      0.995995   160.3027
0.845     0.9956135   156.1955
0.994     0.9955223   152.1757
1.143     0.9951805   148.2445
13.212    0.9982154   32.86837
13.361    0.9983914   32.48123
13.51     0.9980181   32.08456
13.659    0.9983125   31.75756
13.808    0.9984763    31.4093
13.957    0.9979118   31.07223
14.106    0.9985669   30.68617
14.255    0.9984105    30.3685
14.404    0.9982632   30.04678
14.553    0.9981851   29.73649
14.702     0.998662   29.40763
14.851    0.9984054   29.11391
15        0.9981544   28.80734
